# GHZ S RI R 50.0
18 -0.763577700 0.148316900 -0.182925400 -0.283910200 -0.182746500 -0.283824100 0.256469700 0.740577600
18.085 -0.760830600 0.144856800 -0.186943900 -0.284670400 -0.186784400 -0.284595100 0.275041400 0.731005000
18.17 -0.760349600 0.139723000 -0.190677500 -0.283992700 -0.190476500 -0.283821200 0.289505300 0.721319700
18.255 -0.760334800 0.143989700 -0.194687200 -0.281101900 -0.194525500 -0.280958300 0.299715900 0.717379600
18.34 -0.758232800 0.148911500 -0.200007400 -0.279739900 -0.199824500 -0.279525700 0.317393300 0.709553500
18.425 -0.755871600 0.143730500 -0.204424600 -0.280491900 -0.204227400 -0.280313900 0.336355300 0.699509700
18.51 -0.755146900 0.142501300 -0.207421800 -0.278254200 -0.207183300 -0.278126700 0.345913400 0.690936100
18.595 -0.755841000 0.148358000 -0.211747300 -0.275420100 -0.211554900 -0.275252800 0.356713300 0.686140800
18.68 -0.753050600 0.148114500 -0.216913400 -0.274727300 -0.216646000 -0.274531500 0.375404400 0.674630600
18.765 -0.749926600 0.145100500 -0.221528400 -0.274170200 -0.221183800 -0.273989600 0.393150900 0.664202500
18.85 -0.751951300 0.146471600 -0.223595400 -0.271416800 -0.223262200 -0.271272200 0.397583300 0.658417800
18.935 -0.751171600 0.150610100 -0.228419100 -0.268646400 -0.228082600 -0.268458000 0.410606600 0.648166600
19.02 -0.746653300 0.148329400 -0.234044100 -0.268283800 -0.233759400 -0.268016500 0.432221200 0.636563700
19.105 -0.746343500 0.147590100 -0.236551000 -0.266403000 -0.236225300 -0.266171600 0.440490800 0.627017400
19.19 -0.749063100 0.150569800 -0.239934000 -0.263542200 -0.239607600 -0.263328000 0.447350700 0.619958500
19.275 -0.744761300 0.151167100 -0.245086200 -0.261186500 -0.244767500 -0.260974900 0.463854500 0.606867200
19.36 -0.740283500 0.151185100 -0.250184500 -0.259516400 -0.249873500 -0.259283000 0.482876500 0.594254400
19.445 -0.744821700 0.151750800 -0.251617300 -0.257615800 -0.251235900 -0.257505600 0.484260600 0.588016600
19.53 -0.744400600 0.154321000 -0.255743500 -0.253877900 -0.255393700 -0.253741700 0.494517800 0.575848500
19.615 -0.737625400 0.153104600 -0.261712700 -0.251900300 -0.261305800 -0.251759300 0.516088000 0.562519600
19.7 -0.737400900 0.154739300 -0.263893200 -0.250040600 -0.263480500 -0.249972300 0.521077300 0.552007600
19.785 -0.742857200 0.157685000 -0.266720900 -0.247020300 -0.266282900 -0.246986100 0.526033300 0.543892800
19.87 -0.738118800 0.155797200 -0.271509300 -0.243933900 -0.271079300 -0.243932300 0.541734500 0.530233300
19.955 -0.731739300 0.156463000 -0.276456400 -0.241098600 -0.276077400 -0.241083500 0.557817900 0.514138800
20.04 -0.737114300 0.159986400 -0.277547000 -0.239427000 -0.277158200 -0.239473700 0.556363300 0.509458200
20.125 -0.738248500 0.161066000 -0.280822500 -0.235658300 -0.280398000 -0.235641700 0.565543500 0.496853000
20.21 -0.731171500 0.157550500 -0.287383000 -0.232762200 -0.287014300 -0.232772500 0.587473000 0.478062200
20.295 -0.730124100 0.160515200 -0.289135500 -0.230294300 -0.288627700 -0.230346500 0.587052300 0.469018800
20.38 -0.734304200 0.166858000 -0.290798500 -0.226712600 -0.290323000 -0.226782800 0.590026700 0.462983300
20.465 -0.731838300 0.162439800 -0.295670600 -0.224365700 -0.295216700 -0.224398600 0.607215300 0.445277900
20.55 -0.727371600 0.160029300 -0.301213000 -0.220714300 -0.300683000 -0.220709900 0.618212800 0.424415900
20.635 -0.729112600 0.168434500 -0.301407600 -0.217480700 -0.300919800 -0.217445500 0.614975600 0.425178000
20.72 -0.727798000 0.171262200 -0.303305200 -0.214056500 -0.302875600 -0.214084400 0.624044400 0.412895200
20.805 -0.726740500 0.162631000 -0.310651800 -0.211948900 -0.310148300 -0.211953900 0.641178000 0.385523600
20.89 -0.726901700 0.166507500 -0.312398600 -0.208186900 -0.311934200 -0.208216600 0.638890400 0.380233500
20.975 -0.723767700 0.177390100 -0.312782800 -0.202835300 -0.312304400 -0.202811900 0.644623300 0.375518400
21.06 -0.722276600 0.169986200 -0.317242400 -0.201939800 -0.316828300 -0.201956200 0.655635000 0.354803700
21.145 -0.724782900 0.166447900 -0.322271500 -0.198551800 -0.321857000 -0.198540100 0.659886700 0.334115400
21.23 -0.723664300 0.177665700 -0.322799800 -0.193227500 -0.322343800 -0.193224500 0.664837600 0.334130100
21.315 -0.717644300 0.179045600 -0.324926900 -0.189664600 -0.324426500 -0.189652300 0.671298100 0.319090500
21.4 -0.720280900 0.170533700 -0.329838500 -0.188112700 -0.329409900 -0.188055300 0.674066200 0.297759800
21.485 -0.722439200 0.175475700 -0.331411000 -0.184469100 -0.331018200 -0.184499600 0.679421100 0.291568800
21.57 -0.715891100 0.184330100 -0.333658000 -0.178041200 -0.333267200 -0.178046200 0.688930300 0.276290700
21.655 -0.716268500 0.178643900 -0.337296700 -0.176282100 -0.336957000 -0.176347800 0.686577000 0.263647100
21.74 -0.718773700 0.177586800 -0.338979500 -0.173551700 -0.338555500 -0.173604800 0.689024000 0.252625400
21.825 -0.714358400 0.182934500 -0.341110500 -0.168393100 -0.340736800 -0.168425500 0.702801900 0.233893900
21.91 -0.712466600 0.184641500 -0.345117400 -0.164399100 -0.344788800 -0.164587000 0.701036200 0.222066700
21.995 -0.716416100 0.185556500 -0.346836100 -0.161589400 -0.346523200 -0.161683000 0.698603800 0.217293400
22.08 -0.711772000 0.185338000 -0.347954100 -0.157834600 -0.347577400 -0.157905000 0.709225700 0.198808800
22.165 -0.708577600 0.184006800 -0.351803900 -0.152744800 -0.351418800 -0.152863100 0.712204100 0.174537600
22.25 -0.712796500 0.189698400 -0.354288000 -0.150330800 -0.353884000 -0.150420400 0.710866400 0.176573900
22.335 -0.710597600 0.194444300 -0.355242800 -0.146191100 -0.354858700 -0.146303100 0.716179800 0.165624500
22.42 -0.706041800 0.187037400 -0.358646500 -0.140927300 -0.358288200 -0.141047700 0.717673500 0.136170000
22.505 -0.708366400 0.188643600 -0.360763500 -0.137807900 -0.360364700 -0.137917500 0.717984400 0.128963800
22.59 -0.707342000 0.198497400 -0.361458700 -0.134542900 -0.361035000 -0.134624200 0.724654600 0.124353000
22.675 -0.704216400 0.195790000 -0.365254600 -0.129587300 -0.364716900 -0.129603500 0.724095700 0.102347100
22.76 -0.705687900 0.192540700 -0.367851100 -0.124874300 -0.367393900 -0.124923300 0.720370500 0.088681930
22.845 -0.703901300 0.198243900 -0.367270700 -0.121743000 -0.366934300 -0.121745500 0.728230100 0.079512550
22.93 -0.701087900 0.198801000 -0.370016800 -0.117598000 -0.369486900 -0.117535100 0.728482800 0.060627610
23.015 -0.702885000 0.198715100 -0.373578000 -0.113126700 -0.373205600 -0.113190900 0.724795300 0.051037260
23.1 -0.701532200 0.203696400 -0.374286700 -0.108946200 -0.373839200 -0.108902100 0.728864800 0.042022560
23.185 -0.697876500 0.201470500 -0.375035500 -0.103790300 -0.374726400 -0.103926200 0.728492200 0.017021900
23.27 -0.699697000 0.199553200 -0.377267700 -0.100167200 -0.376884700 -0.100172800 0.724415700 0.007267470
23.355 -0.698957800 0.207885100 -0.379325500 -0.096913180 -0.378992200 -0.096956810 0.729979500 0.003190174
23.44 -0.694553100 0.208743600 -0.380877100 -0.091474280 -0.380575200 -0.091586050 0.727777400 -0.017012050
23.525 -0.696522300 0.204312000 -0.382410500 -0.085958840 -0.381940700 -0.086046870 0.719775300 -0.034672260
23.61 -0.696751700 0.207345100 -0.382883900 -0.083314200 -0.382484300 -0.083526160 0.726279100 -0.041323010
23.695 -0.691891600 0.212331500 -0.384357800 -0.078860310 -0.383944700 -0.079049510 0.725167200 -0.056713900
23.78 -0.692638000 0.210538800 -0.387553200 -0.073814480 -0.387116100 -0.074029770 0.718409200 -0.068574670
23.865 -0.693053900 0.213708000 -0.387812300 -0.069262310 -0.387384300 -0.069562550 0.718287200 -0.079493110
23.95 -0.691027600 0.212912900 -0.388078200 -0.064657970 -0.387619400 -0.064894270 0.718136900 -0.102124000
24.035 -0.688983600 0.212538100 -0.389778600 -0.060476640 -0.389223600 -0.060798630 0.713491100 -0.109559000
24.12 -0.689589800 0.219707100 -0.391677800 -0.056669680 -0.391203600 -0.056864620 0.713634600 -0.113436200
24.205 -0.687343100 0.219044800 -0.392830400 -0.051816150 -0.392292800 -0.052038450 0.710315600 -0.135367000
24.29 -0.687023900 0.214993000 -0.393018700 -0.045640410 -0.392512200 -0.045789140 0.699956700 -0.154383900
24.375 -0.687120300 0.219332400 -0.393624300 -0.042669840 -0.393198400 -0.042860460 0.706499900 -0.157916700
24.46 -0.682967100 0.226528500 -0.394803900 -0.038818780 -0.394318300 -0.038971060 0.703064600 -0.167594600
24.545 -0.683995100 0.220516700 -0.396696400 -0.033116820 -0.396366900 -0.033262570 0.691777100 -0.185975000
24.63 -0.684437600 0.220483500 -0.397047300 -0.028364630 -0.396696000 -0.028503090 0.690617600 -0.198826300
24.715 -0.680842500 0.227556400 -0.396394700 -0.023882810 -0.396051300 -0.024064950 0.689954800 -0.212485100
24.8 -0.678730600 0.228467000 -0.397600900 -0.019648100 -0.397331100 -0.019897720 0.684766300 -0.218478600
24.885 -0.682099500 0.227016900 -0.399097200 -0.015438110 -0.398709100 -0.015736110 0.678997600 -0.228161500
24.97 -0.679663200 0.226532100 -0.399918000 -0.010469000 -0.399594100 -0.010753380 0.674270600 -0.250160600
25.055 -0.675204400 0.229497600 -0.399199700 -0.004591592 -0.398904200 -0.004893265 0.666267000 -0.261196300
25.14 -0.676920700 0.234256400 -0.399524700 -0.001309438 -0.399123300 -0.001561692 0.668491000 -0.262837300
25.225 -0.676596400 0.235616700 -0.400558400 0.002739293 -0.400095700 0.002368005 0.661885400 -0.277906700
25.31 -0.675836500 0.227199600 -0.401371100 0.008410925 -0.400932200 0.008139881 0.647493500 -0.296693100
25.395 -0.673836900 0.231730800 -0.401511300 0.013251850 -0.401094000 0.012931250 0.648437400 -0.305025000
25.48 -0.670024800 0.244602200 -0.400715600 0.017580290 -0.400231700 0.017346210 0.646419300 -0.311581100
25.565 -0.671366200 0.238810200 -0.401216000 0.022094510 -0.400694100 0.021828730 0.635119400 -0.323844400
25.65 -0.674963200 0.232201400 -0.401954000 0.026389760 -0.401607000 0.026123530 0.627703300 -0.337664000
25.735 -0.669840300 0.237597500 -0.402255400 0.031302640 -0.401821900 0.031095610 0.623067000 -0.352480000
25.82 -0.663864000 0.244926000 -0.401328000 0.036920420 -0.401029100 0.036689890 0.617160700 -0.357276800
25.905 -0.669116000 0.246886000 -0.401294100 0.040866820 -0.400986700 0.040625160 0.612815000 -0.363262600
25.99 -0.669510700 0.242862400 -0.401437300 0.045077320 -0.401186000 0.044854640 0.602565100 -0.382418800
26.075 -0.665984600 0.236682200 -0.401590400 0.050431160 -0.401343200 0.050266480 0.589748100 -0.395886000
26.16 -0.664125200 0.246070200 -0.401427200 0.054967450 -0.401200200 0.054604680 0.591332600 -0.398189000
26.245 -0.660697300 0.258877600 -0.400434600 0.060209510 -0.400168900 0.059803140 0.586204300 -0.405660300
26.33 -0.664030800 0.246765300 -0.400063400 0.064782920 -0.399800700 0.064433080 0.568710600 -0.421283100
26.415 -0.666963900 0.241085300 -0.400215500 0.068876760 -0.399879800 0.068471770 0.561789500 -0.433900200
26.5 -0.658631100 0.251801100 -0.400102200 0.073743980 -0.399756300 0.073336000 0.559094300 -0.441957700
