# GHZ S RI R 50.0
18 -0.724157000 -0.117900400 -0.117515200 -0.417968000 -0.117537200 -0.418092700 -0.019159680 0.738258000
18.085 -0.716648500 -0.120564100 -0.121902300 -0.419503700 -0.121835800 -0.419652100 0.000389379 0.735058200
18.17 -0.716797000 -0.126093000 -0.126350100 -0.419155500 -0.126341800 -0.419212200 0.012994930 0.730608000
18.255 -0.721256300 -0.121797600 -0.132801800 -0.417532200 -0.132827700 -0.417584900 0.024570820 0.731544100
18.34 -0.718022000 -0.114167300 -0.140310800 -0.417633100 -0.140321400 -0.417660100 0.045687760 0.731711200
18.425 -0.712138800 -0.119299400 -0.144797500 -0.419528600 -0.144735500 -0.419512600 0.063515470 0.727749700
18.51 -0.714520800 -0.122511300 -0.149022200 -0.417457300 -0.148941800 -0.417459700 0.073127910 0.722394100
18.595 -0.718162400 -0.114834000 -0.156395500 -0.415642300 -0.156344900 -0.415672900 0.087944490 0.723815400
18.68 -0.711865200 -0.111907500 -0.162600800 -0.416298000 -0.162505700 -0.416239000 0.108017300 0.720685500
18.765 -0.708767100 -0.117438600 -0.167622000 -0.416798300 -0.167499400 -0.416674000 0.124041200 0.714628600
18.85 -0.714143000 -0.117446100 -0.171527500 -0.414177400 -0.171379000 -0.414077500 0.131135500 0.711643300
18.935 -0.713125200 -0.108286800 -0.179074400 -0.411932400 -0.178952800 -0.411829500 0.149029200 0.709691900
19.02 -0.706687700 -0.111156700 -0.185221700 -0.413553200 -0.185120300 -0.413412000 0.169289600 0.705420000
19.105 -0.708155200 -0.115593800 -0.188517400 -0.411888200 -0.188390300 -0.411755300 0.177886500 0.697476700
19.19 -0.712508500 -0.109160600 -0.194434500 -0.408865400 -0.194294700 -0.408743100 0.189441600 0.696438400
19.275 -0.706966300 -0.105721800 -0.201032900 -0.407896800 -0.200942200 -0.407745500 0.208482400 0.691981000
19.36 -0.703759600 -0.110347700 -0.207039800 -0.407968600 -0.206900000 -0.407838600 0.225543300 0.683467300
19.445 -0.709223800 -0.110601100 -0.209806800 -0.405764800 -0.209633500 -0.405701700 0.230060000 0.679544200
19.53 -0.707733300 -0.101666300 -0.216340500 -0.401805200 -0.216212700 -0.401746400 0.246022500 0.675396300
19.615 -0.702385600 -0.105116100 -0.223380700 -0.402342700 -0.223232900 -0.402278400 0.266778700 0.668509500
19.7 -0.704543800 -0.108884500 -0.226421000 -0.401066100 -0.226277100 -0.401042100 0.272674000 0.659695700
19.785 -0.707714400 -0.101006900 -0.231744100 -0.397099200 -0.231578700 -0.397052600 0.283531800 0.657333400
19.87 -0.702269900 -0.099678480 -0.237750900 -0.395214600 -0.237578900 -0.395204200 0.301795000 0.650805600
19.955 -0.701060700 -0.104701000 -0.243885900 -0.394615500 -0.243734500 -0.394562300 0.316608200 0.638985900
20.04 -0.705949700 -0.102388700 -0.246797700 -0.392539900 -0.246616800 -0.392519600 0.320039400 0.636629900
20.125 -0.702515800 -0.094556340 -0.252170500 -0.387576100 -0.252018400 -0.387571300 0.335400800 0.630128600
20.21 -0.699305200 -0.099585210 -0.259466600 -0.387306700 -0.259313900 -0.387367700 0.355381700 0.618733900
20.295 -0.702957200 -0.101666600 -0.262306300 -0.386147300 -0.262044300 -0.386214700 0.357240400 0.611844100
20.38 -0.703155300 -0.092811990 -0.267296400 -0.380801900 -0.267125200 -0.380835400 0.369436400 0.608250400
20.465 -0.698462500 -0.093561540 -0.272839000 -0.379083100 -0.272649200 -0.379091900 0.386471600 0.597610700
20.55 -0.700202800 -0.098255980 -0.278589500 -0.377979500 -0.278419200 -0.377882300 0.396479400 0.584672200
20.635 -0.703173100 -0.093485210 -0.281558700 -0.374753100 -0.281371400 -0.374675800 0.401570600 0.584578400
20.72 -0.697615400 -0.088013800 -0.286256300 -0.369732800 -0.286096500 -0.369773900 0.416576200 0.573929100
20.805 -0.698138200 -0.093417380 -0.293388700 -0.369366300 -0.293146700 -0.369372700 0.430578800 0.558846700
20.89 -0.702150200 -0.092411210 -0.295815700 -0.367187100 -0.295589200 -0.367230000 0.432778900 0.557013000
20.975 -0.698356500 -0.085076820 -0.300343700 -0.360827000 -0.300107100 -0.360754000 0.447774200 0.548143900
21.06 -0.696268300 -0.088831340 -0.306006900 -0.360323000 -0.305774800 -0.360323300 0.458494400 0.534914300
21.145 -0.700184700 -0.088904610 -0.310587000 -0.357911100 -0.310394200 -0.357863300 0.464106600 0.526215800
21.23 -0.699815500 -0.083629060 -0.313620300 -0.352898600 -0.313453200 -0.352896200 0.476402000 0.522305800
21.315 -0.694807800 -0.083914460 -0.318734500 -0.349688300 -0.318496600 -0.349608100 0.486974800 0.506978000
21.4 -0.698224500 -0.085897640 -0.324387700 -0.348468000 -0.324256300 -0.348371800 0.492065200 0.497359400
21.485 -0.699895000 -0.080707590 -0.326481900 -0.344291800 -0.326313900 -0.344234000 0.501583100 0.494463200
21.57 -0.695010600 -0.079578560 -0.331489000 -0.338773600 -0.331383500 -0.338768200 0.514915500 0.476789800
21.655 -0.696606100 -0.083425540 -0.337032000 -0.338466200 -0.336881600 -0.338493000 0.517941400 0.468552800
21.74 -0.698794200 -0.077396590 -0.339544500 -0.334406300 -0.339421500 -0.334450600 0.525338400 0.464806200
21.825 -0.695461000 -0.075504120 -0.343549000 -0.329037400 -0.343533000 -0.329005200 0.539540400 0.448216200
21.91 -0.695402700 -0.079521540 -0.349257100 -0.327103900 -0.349170600 -0.327145300 0.542913100 0.436657400
21.995 -0.698273100 -0.075183670 -0.352407600 -0.323964400 -0.352340600 -0.324048400 0.549038300 0.433921500
22.08 -0.694827300 -0.071189590 -0.355318600 -0.319242400 -0.355194800 -0.319258800 0.560630900 0.420939000
22.165 -0.694375500 -0.075136970 -0.361094700 -0.315394900 -0.361002600 -0.315415600 0.565862400 0.403296900
22.25 -0.697878300 -0.073115470 -0.364575800 -0.313223400 -0.364454400 -0.313255400 0.571503500 0.401793100
22.335 -0.694992400 -0.067337220 -0.366942400 -0.308351400 -0.366841000 -0.308392900 0.581180700 0.390452700
22.42 -0.693185000 -0.071130890 -0.372559400 -0.304304000 -0.372442100 -0.304373200 0.586002900 0.372299600
22.505 -0.696874900 -0.069906280 -0.376378500 -0.301504500 -0.376155900 -0.301603200 0.591630800 0.367866100
22.59 -0.695385900 -0.063729720 -0.378266000 -0.296883800 -0.378119100 -0.296881400 0.601124900 0.357684000
22.675 -0.693018900 -0.066868260 -0.383439000 -0.292854400 -0.383228700 -0.292847700 0.604986000 0.340733700
22.76 -0.695793300 -0.067100120 -0.387643900 -0.289646000 -0.387435200 -0.289622200 0.609151700 0.334264000
22.845 -0.694546800 -0.060620670 -0.389208500 -0.285405600 -0.389167500 -0.285367400 0.618914400 0.325028700
22.93 -0.693244500 -0.062402270 -0.393836600 -0.280722900 -0.393700800 -0.280650100 0.622712900 0.307091000
23.015 -0.695515600 -0.063936110 -0.398172300 -0.277348600 -0.398065300 -0.277369500 0.626086000 0.300044500
23.1 -0.694471500 -0.057927980 -0.400012000 -0.273380500 -0.399927100 -0.273340100 0.634201700 0.292243000
23.185 -0.691810000 -0.058243880 -0.404041500 -0.268393400 -0.403915800 -0.268441600 0.638189400 0.273649000
23.27 -0.694979200 -0.059661870 -0.408131600 -0.264287600 -0.408019100 -0.264293400 0.640441700 0.264369800
23.355 -0.695322400 -0.054954830 -0.410236700 -0.260567700 -0.410243700 -0.260592800 0.648627200 0.256758700
23.44 -0.691383300 -0.054838500 -0.413595400 -0.256083300 -0.413506700 -0.256115100 0.651390300 0.241227400
23.525 -0.693300200 -0.056373530 -0.418015600 -0.251433800 -0.417924100 -0.251470300 0.652676200 0.229207800
23.61 -0.694657400 -0.050764040 -0.420123000 -0.247478600 -0.419971700 -0.247542300 0.660720900 0.221516500
23.695 -0.692543900 -0.050426000 -0.422796800 -0.242342600 -0.422636900 -0.242356900 0.662414800 0.204529300
23.78 -0.693022500 -0.053832940 -0.427260800 -0.238658500 -0.427143700 -0.238719600 0.664681200 0.194763200
23.865 -0.693018000 -0.047359830 -0.429261700 -0.234299400 -0.429064200 -0.234370300 0.669626100 0.186910000
23.95 -0.692078300 -0.046146740 -0.432463900 -0.228990600 -0.432219500 -0.229074100 0.672965000 0.168536300
24.035 -0.693295400 -0.049077100 -0.435720600 -0.224363000 -0.435440800 -0.224468600 0.673554400 0.157668000
24.12 -0.694013700 -0.045297190 -0.438005700 -0.220683300 -0.437772600 -0.220656400 0.678203500 0.150329200
24.205 -0.690510500 -0.042714630 -0.440945700 -0.216224900 -0.440725800 -0.216209900 0.681140700 0.135500500
24.29 -0.692055400 -0.044346810 -0.444258000 -0.210196800 -0.444052500 -0.210151600 0.679650400 0.120630000
24.375 -0.694374600 -0.041803230 -0.446332400 -0.206263500 -0.446173600 -0.206245900 0.685861900 0.112423700
24.46 -0.691424800 -0.038806800 -0.448437200 -0.201765100 -0.448322100 -0.201682300 0.686254100 0.099224300
24.545 -0.690778900 -0.041769940 -0.452259400 -0.196816400 -0.452211000 -0.196777700 0.685938800 0.085997730
24.63 -0.692338800 -0.037459620 -0.454204800 -0.192081900 -0.454134500 -0.192057300 0.689274800 0.076814770
24.715 -0.692101400 -0.034578980 -0.456101600 -0.186697900 -0.456094500 -0.186682500 0.690010100 0.061088610
24.8 -0.691173500 -0.037812720 -0.459236400 -0.182000000 -0.459151600 -0.182100300 0.690103300 0.049385050
24.885 -0.691835200 -0.034372150 -0.461373200 -0.177589400 -0.461220700 -0.177757400 0.691301600 0.041322060
24.97 -0.690380000 -0.030816230 -0.463928300 -0.172678100 -0.463786500 -0.172794900 0.692771200 0.026239490
25.055 -0.690860500 -0.032762520 -0.465959100 -0.166715800 -0.465841500 -0.166898000 0.690066500 0.012080730
25.14 -0.692841800 -0.031689360 -0.467855100 -0.162579100 -0.467631800 -0.162662800 0.692725200 0.003638402
25.225 -0.689900300 -0.026993620 -0.470210400 -0.157729500 -0.469915400 -0.157948700 0.692626200 -0.009300580
25.31 -0.689325800 -0.029496080 -0.472788300 -0.152177800 -0.472488800 -0.152288700 0.689258000 -0.023199330
25.395 -0.691790000 -0.027076190 -0.474334200 -0.147419400 -0.474111200 -0.147547800 0.691563800 -0.033356260
25.48 -0.690735800 -0.022725290 -0.475761100 -0.142199500 -0.475544000 -0.142284000 0.690373800 -0.046128180
25.565 -0.689048800 -0.026191950 -0.478482600 -0.137109300 -0.478287400 -0.137116100 0.687855500 -0.059218230
25.65 -0.690580200 -0.022956770 -0.479958500 -0.132221400 -0.479843600 -0.132294300 0.687821600 -0.068183620
25.735 -0.689560800 -0.019430670 -0.481651600 -0.127145400 -0.481592300 -0.127157500 0.686619900 -0.082481150
25.82 -0.688725900 -0.021258770 -0.483328100 -0.121256900 -0.483285400 -0.121312900 0.683379700 -0.095258630
25.905 -0.691187700 -0.019125290 -0.484888800 -0.116549500 -0.484825500 -0.116636000 0.683189600 -0.103921500
25.99 -0.688394300 -0.015155000 -0.486721600 -0.111462000 -0.486745100 -0.111548300 0.681437600 -0.117260400
26.075 -0.687591200 -0.018009070 -0.488402300 -0.105771500 -0.488374200 -0.105852200 0.676161600 -0.130485000
26.16 -0.690356300 -0.015823440 -0.489442300 -0.101021400 -0.489394200 -0.101192600 0.676232000 -0.139604400
26.245 -0.688500500 -0.009867733 -0.490932900 -0.095136590 -0.490790200 -0.095329790 0.673882100 -0.152178700
26.33 -0.687056400 -0.014298170 -0.492648400 -0.089814250 -0.492514500 -0.089987700 0.668294000 -0.165340300
26.415 -0.689228500 -0.011688100 -0.493704100 -0.085021020 -0.493516000 -0.085214820 0.667163300 -0.174390700
26.5 -0.687056200 -0.007452320 -0.494998500 -0.079572670 -0.494810700 -0.079727000 0.663947600 -0.187473400
