# GHZ S RI R 50.0
18 -0.000536691 -0.003050261 0.220239500 -0.971617800 0.222214600 -0.971195000 0.001100468 -0.003578586
18.085 -0.002419649 0.003896555 0.207826300 -0.974194800 0.209819200 -0.973954600 -0.006701133 -0.002441315
18.17 0.001813546 0.001159336 0.195736600 -0.977026200 0.197636100 -0.976719900 0.002050254 0.004372356
18.255 0.001982883 -0.004203083 0.183703400 -0.979033000 0.185382600 -0.978835000 0.006377192 0.000219685
18.34 -0.002669906 0.000523067 0.171309100 -0.981692000 0.172976600 -0.981392000 -0.004450284 -0.005455802
18.425 -0.000654889 0.003625070 0.159473000 -0.983579000 0.161164200 -0.983111000 -0.004270640 0.001269686
18.51 0.003167233 -0.001750415 0.146891700 -0.985852100 0.148635000 -0.985258500 0.006645805 0.004211659
18.595 -0.001678809 -0.002953238 0.135109100 -0.987305900 0.136788000 -0.986744600 0.001064075 -0.003380223
18.68 -0.003282034 0.002166828 0.122509000 -0.989066700 0.124215400 -0.988500000 -0.007836995 -0.003757849
18.765 0.002827154 0.002029219 0.110484300 -0.990611200 0.112416700 -0.989926400 0.001563302 0.004186152
18.85 0.000417973 -0.002571215 0.098448600 -0.991701100 0.100269800 -0.991174800 0.006305674 0.001511573
18.935 -0.005110703 -0.001559014 0.086349170 -0.993057700 0.088292030 -0.992564700 -0.005455693 -0.005503082
19.02 0.001012928 0.001924554 0.074553530 -0.993778000 0.076307470 -0.993222800 -0.005196916 -0.000183067
19.105 0.003871239 0.000604814 0.062120730 -0.994902900 0.063956220 -0.994277200 0.006008685 0.005228066
19.19 -0.005043306 -0.001275327 0.050671230 -0.995367600 0.052553520 -0.994742800 0.001254886 -0.002765972
19.275 -0.003541837 -0.000541330 0.038182650 -0.995909900 0.039986930 -0.995468700 -0.007331177 -0.004834062
19.36 0.006557411 0.000754235 0.026763760 -0.996358200 0.028569380 -0.995774700 0.001183697 0.003420630
19.445 0.001189351 0.001043744 0.014594370 -0.996273500 0.016497020 -0.995868300 0.006373426 0.002384401
19.53 -0.007819070 0.001140074 0.002485383 -0.996599300 0.004507495 -0.996289300 -0.003977276 -0.006156025
19.615 0.001277358 -0.001368100 -0.008814177 -0.996384100 -0.006830813 -0.996035300 -0.003917849 -0.001008103
19.7 0.007909658 -0.001060432 -0.021517280 -0.996326300 -0.019234940 -0.996005200 0.005753463 0.004497981
19.785 -0.003524631 0.003180519 -0.032371800 -0.996005200 -0.030117000 -0.995739300 0.001222285 -0.002259767
19.87 -0.006143827 0.002482190 -0.044746030 -0.995347900 -0.042505230 -0.995108500 -0.005529536 -0.004725882
19.955 0.005716079 -0.003220153 -0.056134290 -0.994951800 -0.054006110 -0.994726600 0.002705456 0.001936404
20.04 0.003555324 -0.001490195 -0.067530180 -0.993980500 -0.065408630 -0.993840400 0.003423242 0.001600448
20.125 -0.006017864 0.005030531 -0.079903980 -0.993174100 -0.077618530 -0.992986900 -0.004877764 -0.003001745
20.21 -0.000318577 0.001711802 -0.090317640 -0.992265300 -0.088297920 -0.992106800 0.000237474 -0.001344639
20.295 0.005346470 -0.005001386 -0.102741500 -0.990808500 -0.100670100 -0.990594300 0.005785054 0.000495607
20.38 -0.002209943 0.000016526 -0.113734200 -0.990104400 -0.111694700 -0.989739800 -0.004412055 0.000317365
20.465 -0.003564560 0.005449591 -0.125344900 -0.987995900 -0.123230500 -0.987791500 -0.003888931 0.000310173
20.55 0.005057557 -0.000817907 -0.136781300 -0.986848300 -0.134746200 -0.986641600 0.008238814 -0.002492586
20.635 0.001577290 -0.002935680 -0.147544900 -0.985168600 -0.145604700 -0.984885800 0.000171217 -0.002278392
20.72 -0.005736589 0.001948624 -0.159560600 -0.982878900 -0.157487800 -0.982899700 -0.009473723 0.004378330
20.805 0.001582044 0.001518454 -0.170011800 -0.981613900 -0.167993200 -0.981538200 0.004508710 0.000047876
20.89 0.006534438 -0.000951644 -0.181517300 -0.978681000 -0.179496800 -0.978755700 0.007710325 -0.007172855
20.975 -0.002586222 0.001684252 -0.192334100 -0.977338800 -0.190354200 -0.977321600 -0.007285700 0.001112774
21.06 -0.005964191 0.000291809 -0.203472300 -0.974407800 -0.201362400 -0.974518400 -0.004804546 0.006201904
21.145 0.005200004 -0.002295902 -0.214773800 -0.972237200 -0.212791700 -0.972221700 0.008701936 -0.005876436
21.23 0.006044724 0.001969819 -0.224889900 -0.969813000 -0.222765200 -0.969929800 0.001302353 -0.005070368
21.315 -0.004516783 0.003378958 -0.236269900 -0.966779900 -0.233922700 -0.966857500 -0.006183430 0.004902517
21.4 -0.004659580 -0.003106806 -0.246765200 -0.964709700 -0.244470700 -0.964843800 0.000395638 0.000838929
21.485 0.005419637 -0.002231392 -0.257590700 -0.961182400 -0.255539800 -0.961285500 0.003958404 -0.005290877
21.57 0.006085875 0.003287030 -0.268241700 -0.958677600 -0.266100400 -0.959016500 0.002430624 -0.000167675
21.655 -0.005535117 0.001224998 -0.278584300 -0.955275500 -0.276526300 -0.955569000 -0.003354552 0.001555883
21.74 -0.003922122 -0.001361198 -0.289514000 -0.952214200 -0.287386600 -0.952446500 -0.004365386 -0.001910227
21.825 0.006590445 -0.000979896 -0.299620300 -0.949085800 -0.297565200 -0.949269600 0.006071544 -0.000186461
21.91 0.003446006 -0.000706382 -0.309681900 -0.945448900 -0.307943800 -0.945551700 0.005926224 -0.001221300
21.995 -0.004772985 0.001506766 -0.320179100 -0.942604700 -0.318357200 -0.942706800 -0.007755454 -0.001331211
22.08 -0.000483267 0.001992234 -0.330282700 -0.938684200 -0.328490700 -0.938726300 -0.004040411 0.002233692
22.165 0.004133098 -0.002362023 -0.340704400 -0.935287400 -0.339204300 -0.935396200 0.009689742 -0.001791967
22.25 0.000729851 -0.002843270 -0.350814900 -0.931468100 -0.349155300 -0.931491000 0.002493211 -0.003342688
22.335 -0.001628400 0.002882960 -0.361171900 -0.927551400 -0.359453900 -0.927622100 -0.007755625 0.002983044
22.42 0.000638026 0.002999144 -0.371419100 -0.923754900 -0.369740800 -0.923804300 0.000065753 0.000139037
22.505 0.001818102 -0.002755102 -0.381370800 -0.919391900 -0.379775100 -0.919502000 0.005031957 -0.004765995
22.59 0.001135639 -0.002733759 -0.391480500 -0.915465000 -0.389765800 -0.915669900 0.000703415 0.000894622
22.675 -0.000602160 0.001661058 -0.401476900 -0.910740000 -0.399821700 -0.910937200 -0.000372933 0.001287486
22.76 -0.000392078 0.003045346 -0.411617300 -0.906660100 -0.410055200 -0.906837300 -0.002975411 -0.003493224
22.845 0.002855488 -0.001036176 -0.421297500 -0.901890300 -0.419715600 -0.901957200 0.000319635 -0.000200910
22.93 0.000966068 -0.003234097 -0.431356900 -0.897335800 -0.429729300 -0.897397000 0.005538931 0.000573886
23.015 -0.001821246 0.000167581 -0.440883200 -0.892504300 -0.439222900 -0.892453400 0.000772589 -0.003637475
23.1 0.000777856 0.002775811 -0.450839300 -0.887458100 -0.449249300 -0.887818000 -0.005673785 0.000655566
23.185 0.002911710 0.001447137 -0.460336900 -0.882581300 -0.458701900 -0.882873300 0.001188954 0.000185518
23.27 0.000426013 -0.003616326 -0.469845100 -0.877106800 -0.468273800 -0.877456800 0.006203586 -0.004183958
23.355 0.000021018 -0.002229066 -0.479294400 -0.872229800 -0.477415600 -0.872764200 0.000238804 -0.000546702
23.44 0.000524599 0.002481208 -0.488372700 -0.866575900 -0.486398400 -0.867170800 -0.002186864 0.001957719
23.525 0.000382203 0.003158636 -0.498151700 -0.861502000 -0.496100300 -0.862088100 -0.001565101 -0.002935867
23.61 0.002700149 -0.003364774 -0.507054700 -0.855540800 -0.504969500 -0.856313600 0.002820672 -0.002639373
23.695 0.002558566 -0.003675745 -0.516656500 -0.850329100 -0.514764800 -0.851018100 0.006202882 0.000487865
23.78 -0.002922497 0.002522822 -0.525078600 -0.844676400 -0.523265400 -0.845420100 -0.002408631 -0.000471681
23.865 -0.000299787 0.003033495 -0.534350800 -0.838733500 -0.532446600 -0.839491000 -0.005876989 -0.000287173
23.95 0.005201576 -0.001824510 -0.543320200 -0.833080700 -0.541315900 -0.834067600 0.004053633 -0.002524736
24.035 0.003501917 -0.004490243 -0.552022200 -0.826788500 -0.549911600 -0.827594200 0.007628868 -0.004504026
24.12 -0.003624073 0.001023957 -0.561206000 -0.821339200 -0.559401000 -0.822203300 -0.003559769 0.002702351
24.205 -0.002115092 0.003362934 -0.569315100 -0.814821900 -0.567422900 -0.815765700 -0.004144943 0.003063396
24.29 0.005832846 -0.000216507 -0.578779600 -0.808868800 -0.576851700 -0.809686800 0.001801832 -0.007793387
24.375 0.005274068 -0.005503845 -0.586300000 -0.802423600 -0.584526000 -0.803326600 0.005151193 -0.005004487
24.46 -0.002553676 -0.000140689 -0.595332000 -0.796097000 -0.593386400 -0.796852700 0.001642144 0.004768047
24.545 -0.004147711 0.004874293 -0.603401000 -0.790132600 -0.601544000 -0.791058300 -0.004749913 0.000721712
24.63 0.004348415 -0.001476066 -0.611787000 -0.782958700 -0.609980000 -0.784006400 -0.001915059 -0.005627381
24.715 0.008236830 -0.005444572 -0.620042000 -0.776928200 -0.618167500 -0.777775800 0.006912866 -0.005779387
24.8 -0.000391381 0.000340164 -0.627716400 -0.770019000 -0.625952100 -0.770880200 0.002695254 0.000036705
24.885 -0.006422263 0.003958047 -0.636329800 -0.763395800 -0.634391000 -0.764359300 -0.005765602 0.005223518
24.97 0.002540142 -0.001510272 -0.643786500 -0.756782900 -0.641817600 -0.757680000 0.000352841 -0.002578253
25.055 0.010260460 -0.004930872 -0.651952000 -0.749694700 -0.649985200 -0.750663800 0.004866909 -0.011224880
25.14 0.001173466 -0.001072258 -0.659385400 -0.743439200 -0.657585400 -0.744387600 0.000472348 0.000459676
25.225 -0.006550517 0.004221045 -0.667127900 -0.735880900 -0.665169100 -0.737003000 -0.001847685 0.008105379
25.31 0.001370291 0.000574515 -0.675013500 -0.729154100 -0.673072300 -0.730217800 -0.000664242 -0.004555971
25.395 0.008982098 -0.007303939 -0.682014900 -0.721724500 -0.680029300 -0.722736000 0.002803602 -0.009902212
25.48 0.003441238 -0.002069151 -0.689873500 -0.714875800 -0.687916000 -0.715872100 0.002677104 -0.000660215
25.565 -0.004416400 0.005610197 -0.696700200 -0.707715600 -0.694972200 -0.708866200 -0.002767095 0.004462640
25.65 -0.001527936 0.000612191 -0.704469200 -0.700140100 -0.702759800 -0.701275300 -0.002380833 0.000734269
25.735 0.007319398 -0.007214080 -0.711631400 -0.693006000 -0.709877400 -0.694105600 0.004807533 -0.008742489
25.82 0.006590702 -0.004197795 -0.718850000 -0.685203700 -0.717094400 -0.686505300 0.002661558 -0.007491831
25.905 -0.003637942 0.004308041 -0.726037600 -0.677983400 -0.724204000 -0.679315300 -0.004198663 0.006287619
25.99 -0.003264665 0.003241346 -0.732772800 -0.670311100 -0.731038100 -0.671599600 -0.001126064 0.004513870
26.075 0.007420920 -0.005805130 -0.739998000 -0.662348600 -0.738258700 -0.663631300 0.003035975 -0.010759040
26.16 0.007320413 -0.007533264 -0.746227300 -0.654957700 -0.744584500 -0.656275100 0.003243905 -0.008266690
26.245 -0.001826984 0.002133549 -0.753336400 -0.646809200 -0.751734400 -0.648135800 -0.000282399 0.004670719
26.33 -0.003258127 0.005848065 -0.759797200 -0.639340500 -0.758128500 -0.640578900 -0.004640415 0.004323689
26.415 0.003894276 -0.003752950 -0.766577800 -0.630835100 -0.764774700 -0.632119700 0.000415716 -0.004721866
26.5 0.008354563 -0.008953896 -0.772878600 -0.623035300 -0.771153600 -0.624455500 0.006704912 -0.010117020
