# GHZ S RI R 50.0
18 -0.937055200 0.261712000 0.000003295 -0.000009514 -0.000008411 -0.000001352 -0.968531200 0.261218800
18.085 -0.949107800 0.254895600 -0.000004159 0.000000205 0.000001857 -0.000009854 -0.965309100 0.255859900
18.17 -0.968250000 0.266986700 -0.000007788 -0.000004511 -0.000005896 -0.000004143 -0.962067100 0.254253700
18.255 -0.954003400 0.273560300 -0.000010656 -0.000017907 -0.000019680 -0.000009709 -0.966571700 0.258026000
18.34 -0.938130700 0.252259800 -0.000005384 -0.000003430 -0.000008611 -0.000002111 -0.969415500 0.257573800
18.425 -0.958489100 0.254072300 -0.000009345 0.000006361 -0.000005552 0.000005167 -0.964780000 0.253783900
18.51 -0.968240100 0.273008900 -0.000017916 -0.000007327 -0.000013912 -0.000003719 -0.961784400 0.255103000
18.595 -0.945163900 0.264973700 -0.000004770 0.000000771 -0.000013482 0.000000933 -0.969756800 0.258371500
18.68 -0.946424400 0.245221200 -0.000019716 0.000002518 -0.000013795 -0.000001736 -0.968966400 0.254057700
18.765 -0.964690600 0.258138600 -0.000012885 0.000001219 -0.000017001 -0.000001130 -0.962529200 0.253638500
18.85 -0.961750900 0.277877200 -0.000010256 0.000006122 -0.000011006 0.000000856 -0.965130200 0.255938100
18.935 -0.944524000 0.248934300 -0.000000921 0.000002444 -0.000005062 0.000001025 -0.971392900 0.256728500
19.02 -0.954643400 0.244396600 -0.000007660 -0.000007624 -0.000004526 0.000003810 -0.966646600 0.252813500
19.105 -0.967928200 0.271921400 0.000002192 0.000010725 -0.000004789 0.000013858 -0.961304600 0.253362900
19.19 -0.953310800 0.266459100 -0.000006516 -0.000002030 -0.000010660 -0.000004920 -0.970539800 0.257014800
19.275 -0.951066900 0.240180300 -0.000008544 0.000003790 -0.000005718 0.000000513 -0.969911300 0.254078400
19.36 -0.961518400 0.252858300 -0.000006741 0.000001935 -0.000007211 0.000003561 -0.962495800 0.252807900
19.445 -0.960978400 0.281028700 -0.000002519 -0.000000395 -0.000018351 0.000013282 -0.965958400 0.255058700
19.53 -0.953343200 0.248881500 -0.000008285 0.000011559 -0.000011965 0.000010811 -0.971084000 0.257530500
19.615 -0.958989600 0.241304400 0.000001192 0.000004369 -0.000000607 0.000010235 -0.965530000 0.253959000
19.7 -0.962602300 0.273078900 0.000000757 0.000006233 -0.000004701 0.000003645 -0.961875400 0.252366300
19.785 -0.952702600 0.265462900 -0.000006793 0.000007201 -0.000006317 0.000008606 -0.970437200 0.260718500
19.87 -0.961788400 0.242996500 -0.000004942 -0.000001100 0.000001675 0.000004529 -0.967129200 0.255862900
19.955 -0.964751700 0.256121700 0.000003090 0.000001229 -0.000000410 0.000000789 -0.961358000 0.252525900
20.04 -0.951923600 0.276640000 -0.000006456 0.000000570 -0.000002358 -0.000002686 -0.967519900 0.259113000
20.125 -0.959411700 0.245353600 -0.000009091 -0.000003361 -0.000009847 -0.000009143 -0.967577700 0.261807700
20.21 -0.969250600 0.251467200 0.000012188 0.000009325 -0.000003491 0.000000439 -0.962540000 0.252148700
20.295 -0.957983600 0.277651600 -0.000016841 0.000005923 -0.000004341 -0.000002729 -0.963634800 0.254016100
20.38 -0.952045800 0.250681600 0.000010761 0.000018274 -0.000001258 0.000005317 -0.966975500 0.270706600
20.465 -0.970856500 0.246318600 0.000009124 0.000013436 -0.000007459 -0.000002120 -0.962365800 0.254143300
20.55 -0.966536800 0.272392600 -0.000011234 0.000012823 0.000011338 -0.000001032 -0.962676800 0.248948400
20.635 -0.948372500 0.268937400 -0.000023756 -0.000000896 0.000007016 0.000027677 -0.965606000 0.269050000
20.72 -0.969841100 0.237121100 0.000014986 -0.000002991 -0.000014506 0.000020398 -0.959522200 0.266842000
20.805 -0.970850600 0.263580300 -0.000005679 0.000001145 -0.000012191 0.000006795 -0.962903900 0.245959000
20.89 -0.951309700 0.281415900 -0.000020591 0.000008636 -0.000010122 0.000006447 -0.965268800 0.257609800
20.975 -0.965891800 0.243608800 0.000012166 0.000003533 -0.000010680 0.000011878 -0.956426700 0.277878800
21.06 -0.974462000 0.257252000 -0.000015307 -0.000009547 -0.000012622 0.000003385 -0.960168100 0.251756500
21.145 -0.957265400 0.274134900 0.000005761 0.000014797 0.000003502 -0.000005832 -0.966067100 0.248960100
21.23 -0.958740800 0.259177200 -0.000000288 0.000000430 -0.000003032 -0.000012711 -0.956377700 0.274057400
21.315 -0.979991500 0.258277500 0.000004137 0.000001796 0.000001223 -0.000002489 -0.953911800 0.262695900
21.4 -0.959750300 0.271344500 -0.000020190 0.000010472 -0.000013095 0.000000162 -0.965704200 0.250976500
21.485 -0.958513500 0.257292900 -0.000017309 0.000009918 -0.000008226 0.000009107 -0.958956100 0.263303100
21.57 -0.982457900 0.258263000 -0.000009078 0.000003214 -0.000018605 0.000004177 -0.948755600 0.267399800
21.655 -0.959436600 0.284320400 -0.000010756 0.000011385 -0.000001798 0.000008854 -0.962963800 0.256059300
21.74 -0.958136300 0.257861000 0.000011571 0.000019942 0.000000190 0.000004333 -0.960243300 0.261365700
21.825 -0.983023900 0.251363900 -0.000015146 0.000008251 0.000006291 0.000014879 -0.949189400 0.261559900
21.91 -0.967393900 0.286139100 -0.000006540 -0.000002951 0.000008048 -0.000016570 -0.958599400 0.257801600
21.995 -0.951439400 0.272336600 0.000006356 0.000029070 0.000038703 -0.000015301 -0.958107400 0.267295000
22.08 -0.982333200 0.252453500 -0.000011962 0.000021729 -0.000010042 0.000025825 -0.951237700 0.259030300
22.165 -0.975376400 0.276909900 -0.000000332 0.000016341 -0.000000991 0.000002314 -0.959007100 0.252266700
22.25 -0.949729300 0.279704400 0.000000653 0.000025190 0.000012659 0.000010762 -0.957411000 0.267628800
22.335 -0.979484700 0.261468000 0.000003746 0.000000383 -0.000014083 -0.000007782 -0.946050000 0.266762300
22.42 -0.976733300 0.278518800 -0.000001265 0.000011757 0.000003298 0.000009023 -0.961134700 0.250407200
22.505 -0.951890800 0.277866300 -0.000016175 0.000017942 -0.000006114 -0.000009393 -0.962665600 0.260878300
22.59 -0.979265800 0.263985300 0.000017143 0.000014667 0.000007557 0.000011538 -0.943381500 0.269221800
22.675 -0.979865100 0.284055900 0.000018538 0.000009961 0.000009269 0.000005599 -0.955119400 0.257427400
22.76 -0.948054100 0.283288700 -0.000004305 0.000000036 -0.000010099 0.000017744 -0.963690500 0.260258100
22.845 -0.977158000 0.265828900 0.000003942 -0.000007390 -0.000004715 -0.000003300 -0.949164100 0.263773100
22.93 -0.981708100 0.282181500 -0.000003425 0.000011037 0.000001581 0.000006472 -0.953506200 0.259769300
23.015 -0.949897800 0.288953200 -0.000000183 0.000012320 0.000018927 0.000012577 -0.959993600 0.264476400
23.1 -0.970879600 0.272750000 -0.000003476 0.000014193 0.000010902 0.000017242 -0.945916400 0.265771700
23.185 -0.980799000 0.286279400 0.000010499 0.000000893 0.000010099 0.000008678 -0.956400300 0.255224300
23.27 -0.953606200 0.284964600 -0.000014841 -0.000004236 -0.000006396 0.000015631 -0.961799100 0.264147000
23.355 -0.966973500 0.276964900 0.000000918 0.000014488 -0.000002448 0.000009616 -0.942905400 0.270649900
23.44 -0.983102400 0.295230100 -0.000006584 0.000002533 -0.000013978 0.000012378 -0.950479000 0.259481300
23.525 -0.949352300 0.288731200 -0.000010729 0.000022349 0.000007162 0.000002966 -0.962686600 0.262032400
23.61 -0.965237400 0.275239200 -0.000028876 0.000003842 -0.000005161 -0.000001194 -0.949531900 0.265195800
23.695 -0.983590800 0.294952000 0.000015446 0.000021582 -0.000003787 0.000028528 -0.945580800 0.264084400
23.78 -0.949151900 0.298737000 -0.000014496 0.000000135 0.000038026 0.000027237 -0.958307500 0.269517500
23.865 -0.966207100 0.280836500 0.000010012 0.000003235 -0.000000080 0.000012681 -0.947410300 0.263792600
23.95 -0.975296300 0.291085900 -0.000014226 0.000006965 -0.000006755 0.000008468 -0.953417800 0.257609200
24.035 -0.952120100 0.298404600 0.000016824 0.000022846 -0.000018827 0.000016720 -0.958153400 0.269359800
24.12 -0.962511800 0.290308500 0.000013151 0.000021423 0.000026202 -0.000004420 -0.941329200 0.273574000
24.205 -0.975358900 0.299365300 0.000001398 -0.000005594 -0.000003081 0.000015346 -0.951135300 0.259954500
24.29 -0.950716100 0.291661800 0.000015464 0.000007899 0.000015544 -0.000009021 -0.961078900 0.261585300
24.375 -0.955727000 0.288562400 -0.000003528 0.000017564 0.000015641 -0.000000460 -0.947338200 0.269622500
24.46 -0.976647300 0.311698500 0.000004949 0.000008549 -0.000003979 0.000004413 -0.943862700 0.268544900
24.545 -0.949003800 0.297319900 0.000021408 0.000028241 0.000004528 0.000010371 -0.957394500 0.268906700
24.63 -0.957954700 0.284848700 0.000037637 0.000004110 0.000022185 0.000007883 -0.950242900 0.261158600
24.715 -0.968160500 0.305543900 0.000000777 0.000001964 0.000004396 -0.000005460 -0.949488300 0.262432800
24.8 -0.945320500 0.311280200 0.000013927 0.000008911 0.000023278 -0.000009030 -0.954895700 0.276860800
24.885 -0.960882700 0.294420000 0.000011867 0.000020397 -0.000001295 -0.000006375 -0.943449200 0.269627900
24.97 -0.966688300 0.298374400 0.000011917 -0.000012141 0.000022207 0.000007365 -0.954128900 0.259029100
25.055 -0.946168100 0.305321500 -0.000007083 -0.000005543 0.000005500 0.000009586 -0.958274300 0.267736800
25.14 -0.950761700 0.304512700 -0.000002364 0.000024347 0.000003454 0.000005936 -0.943297100 0.274865300
25.225 -0.965657700 0.314094700 0.000009718 0.000027604 0.000005801 0.000013262 -0.949267400 0.268126000
25.31 -0.949723500 0.294883800 0.000034329 -0.000003333 0.000029528 0.000005566 -0.958651600 0.267216400
25.395 -0.951017600 0.295481600 0.000012490 -0.000029313 -0.000000640 -0.000012496 -0.950047600 0.265934100
25.48 -0.959479400 0.324776200 -0.000001498 0.000013907 -0.000010238 0.000004936 -0.948134700 0.270138000
25.565 -0.941862700 0.310305600 -0.000026540 0.000006354 -0.000017903 -0.000001228 -0.954633500 0.278955700
25.65 -0.957187400 0.293485800 0.000004505 0.000004266 0.000011889 0.000026844 -0.948751500 0.265880800
25.735 -0.959087700 0.307477700 -0.000006906 0.000016977 0.000006373 0.000016130 -0.955008300 0.262994400
25.82 -0.938685400 0.318107100 0.000002173 0.000024598 0.000010235 0.000026232 -0.954745700 0.278772500
25.905 -0.949393800 0.312124800 -0.000003092 0.000011555 0.000012502 -0.000009565 -0.943392600 0.276953000
25.99 -0.956805800 0.311600800 0.000006066 0.000032688 0.000006815 0.000023896 -0.954716400 0.268228000
26.075 -0.945473000 0.301297300 0.000008167 0.000014255 -0.000003351 0.000006672 -0.958092100 0.270027300
26.16 -0.946221300 0.309994500 -0.000055612 0.000023063 -0.000018491 0.000033098 -0.947980500 0.273560600
26.245 -0.950296300 0.333028400 -0.000028459 0.000041265 -0.000033172 0.000046789 -0.949700600 0.278252100
26.33 -0.940259100 0.309952800 0.000006212 0.000014898 0.000014126 0.000025526 -0.953824300 0.280860000
26.415 -0.951403500 0.299952300 0.000005109 0.000051680 0.000006717 0.000053633 -0.951821100 0.267016000
26.5 -0.950341800 0.320110200 0.000018535 0.000028256 0.000018504 0.000009388 -0.954512800 0.270603200
