# GHZ S RI R 50.0
18 0.006079363 0.000852744 0.961272600 -0.260785100 0.964664000 -0.258887800 0.001419348 0.004976771
18.085 0.000082199 -0.000460504 0.961573300 -0.260346100 0.964789000 -0.258418100 0.001786909 -0.004990181
18.17 -0.003856926 0.001137003 0.961762900 -0.259940900 0.964938500 -0.258011100 -0.000425134 -0.001843250
18.255 0.003206768 0.002551665 0.961868200 -0.259694700 0.965005200 -0.257907100 0.000964659 0.007679102
18.34 0.004107862 -0.000747632 0.962135200 -0.259335700 0.965115500 -0.257611200 0.002490265 -0.000626493
18.425 -0.002749618 -0.000647186 0.962257600 -0.259129800 0.965234700 -0.257304600 0.000341975 -0.007017239
18.51 -0.001287846 0.003671170 0.962318400 -0.258908100 0.965369500 -0.257082100 0.000164131 0.004407500
18.595 0.003941405 0.000964013 0.962267400 -0.258730600 0.965338800 -0.256906500 0.002052770 0.006066954
18.68 0.000833310 -0.004222679 0.962400700 -0.258722500 0.965321300 -0.256959100 0.000935917 -0.007180107
18.765 -0.002021717 0.001667362 0.962441000 -0.258592100 0.965482800 -0.256718000 -0.000683522 -0.003512684
18.85 0.000421844 0.004935038 0.962363700 -0.258612100 0.965477000 -0.256733400 0.001409840 0.008009152
18.935 0.001676823 -0.004382696 0.962521000 -0.258502700 0.965648700 -0.256583800 0.001056997 -0.000666280
19.02 -0.000167503 -0.004551955 0.962367500 -0.258474900 0.965520300 -0.256611000 -0.000339813 -0.009072285
19.105 0.000190611 0.005936081 0.962439000 -0.258590500 0.965555200 -0.256796800 -0.000055540 0.002897469
19.19 -0.000301924 0.000899552 0.962401900 -0.258495900 0.965515000 -0.256760800 0.000363655 0.005094949
19.275 -0.000738943 -0.009029642 0.962253200 -0.258584600 0.965369700 -0.256930100 -0.000134440 -0.006988066
19.36 0.001571273 0.000051927 0.962283400 -0.258632800 0.965421600 -0.256835300 0.000042275 -0.004720561
19.445 0.001096355 0.007641449 0.962028400 -0.258835300 0.965387800 -0.257051100 0.000193987 0.006225424
19.53 -0.003295692 -0.004329423 0.962244600 -0.259059800 0.965423500 -0.257221300 -0.000699406 -0.000793036
19.615 -0.001596270 -0.008134797 0.961878200 -0.259354500 0.965166400 -0.257257900 0.000471036 -0.007614692
19.7 0.003921689 0.004960603 0.961840500 -0.259600500 0.965167000 -0.257451800 0.001174224 0.001700847
19.785 -0.000022884 0.004502638 0.961738200 -0.259656500 0.965102700 -0.257462800 -0.000946217 0.003747610
19.87 -0.005390791 -0.007656216 0.961425800 -0.259940700 0.964841300 -0.257825700 -0.001527982 -0.005582034
19.955 -0.000263559 -0.003271965 0.961488100 -0.260242300 0.964940000 -0.257987400 0.002274987 -0.002990681
20.04 0.003658772 0.006125246 0.961551100 -0.260007400 0.964527600 -0.258427600 0.001722559 0.004162315
20.125 -0.001699436 -0.001590781 0.961424400 -0.260392200 0.964265400 -0.258775400 -0.003360082 -0.002329396
20.21 -0.004362570 -0.006628370 0.961264100 -0.260492000 0.964000500 -0.258817600 -0.000995760 -0.005700946
20.295 0.000251768 0.001965335 0.961113700 -0.260669600 0.963842200 -0.259097300 0.004791227 0.002319754
20.38 0.002497909 0.003193509 0.960933400 -0.261057100 0.963784000 -0.259394200 0.000027693 0.002101465
20.465 -0.001893696 -0.006191423 0.960458800 -0.261240300 0.963461200 -0.259649500 -0.005314703 -0.007297193
20.55 -0.002283688 -0.003621665 0.960519100 -0.261541300 0.963326900 -0.259900100 0.000787845 -0.002701537
20.635 -0.000046360 0.005922250 0.960211500 -0.261649600 0.962982800 -0.260022600 0.006113505 0.005572416
20.72 0.000522415 -0.001135594 0.959976500 -0.261914700 0.963073700 -0.260327500 -0.002279455 -0.002530584
20.805 -0.000720295 -0.008959189 0.959741900 -0.262116500 0.962724700 -0.260465000 -0.005845998 -0.008816459
20.89 -0.000925898 0.001054137 0.959604700 -0.262231300 0.962544900 -0.260627500 0.003220274 0.001863139
20.975 -0.000827729 0.007276646 0.959480300 -0.262314400 0.962532700 -0.260873300 0.005298189 0.005236144
21.06 -0.001089230 -0.005583737 0.959168400 -0.262617300 0.962294300 -0.260981800 -0.004000660 -0.006403697
21.145 -0.000531995 -0.008850218 0.959010800 -0.262951800 0.962074000 -0.261378400 -0.003684373 -0.007726503
21.23 0.000197195 0.005634127 0.958754600 -0.262934700 0.962085500 -0.261306700 0.004354766 0.005272204
21.315 -0.001386652 0.004756467 0.958696200 -0.263016500 0.961760000 -0.261495500 0.002761050 0.002676356
21.4 -0.002911854 -0.007025857 0.958566200 -0.263096700 0.961705900 -0.261588500 -0.002517794 -0.007650459
21.485 -0.000810773 -0.006106084 0.958369900 -0.263469900 0.961512600 -0.261855000 -0.002151193 -0.005473164
21.57 0.001944143 0.004923698 0.958177900 -0.263810300 0.961521700 -0.262146100 0.002401794 0.005173829
21.655 -0.001427415 0.003243732 0.958224700 -0.263894700 0.961328700 -0.262301000 0.002119306 0.002931961
21.74 -0.004343082 -0.006574176 0.958128800 -0.264184900 0.961159300 -0.262595400 -0.001730907 -0.008830998
21.825 -0.001040588 -0.004532647 0.957965700 -0.264306000 0.961167600 -0.262641400 -0.001182149 -0.005460562
21.91 0.002409424 0.003075823 0.957804000 -0.264564800 0.960969700 -0.262772100 0.001200550 0.006061678
21.995 -0.001401264 0.001862035 0.957944400 -0.264670600 0.960911300 -0.263068600 0.001679816 0.001832358
22.08 -0.003331217 -0.005003736 0.957741100 -0.265044800 0.960911400 -0.263379200 -0.001630328 -0.008286122
22.165 -0.001784154 -0.004083574 0.957915200 -0.265370700 0.960950100 -0.263650400 -0.000940577 -0.004788648
22.25 0.000666456 0.002140056 0.957842800 -0.265645800 0.960796500 -0.263967400 0.001831212 0.003767582
22.335 0.001141388 0.000566069 0.957864000 -0.266000200 0.960750500 -0.264372600 -0.000108702 0.001708406
22.42 -0.001854401 -0.005219689 0.957804300 -0.266587700 0.960723100 -0.264744400 -0.002025619 -0.005678893
22.505 -0.004319439 -0.002063403 0.957721800 -0.266859800 0.960674000 -0.265227000 0.001319968 -0.005735434
22.59 -0.000100928 0.001589254 0.957651100 -0.267274400 0.960497700 -0.265565100 0.000626578 0.000313067
22.675 0.002956929 -0.001945589 0.957647200 -0.267806100 0.960535000 -0.266175400 -0.001605359 0.002660863
22.76 -0.001279736 -0.002929937 0.957492200 -0.268301700 0.960446700 -0.266705200 -0.000061269 -0.002362879
22.845 -0.005272499 -0.000772592 0.957300500 -0.268821700 0.960243500 -0.267315600 0.001817318 -0.007127448
22.93 -0.000889569 -0.001477874 0.957298600 -0.269239200 0.960129100 -0.267713000 -0.001831272 -0.001720311
23.015 0.001606054 -0.001272117 0.957154300 -0.269789100 0.959844000 -0.268211700 -0.000248226 0.002206690
23.1 0.000755502 -0.000404985 0.956877200 -0.270377200 0.959752300 -0.268815500 0.000702595 0.000316281
23.185 -0.004198678 -0.003314746 0.956549000 -0.270940400 0.959480900 -0.269298300 -0.000226382 -0.006481173
23.27 -0.004712868 -0.003442398 0.956383300 -0.271518700 0.959324900 -0.269875700 -0.000021750 -0.005571525
23.355 0.001478672 0.001497938 0.956274900 -0.271825500 0.959296500 -0.270171300 -0.000183293 0.002082798
23.44 0.002773908 -0.000330532 0.956044000 -0.272436400 0.959115000 -0.270732200 -0.000781931 0.003120541
23.525 -0.003758382 -0.004250150 0.955850800 -0.273084800 0.958931700 -0.271281300 0.000168617 -0.005241547
23.61 -0.006220696 -0.004625733 0.955532600 -0.273795600 0.958581700 -0.271944900 -0.000191452 -0.009706368
23.695 0.001349380 0.001343903 0.955417900 -0.274209800 0.958478700 -0.272299400 -0.000019615 0.001618519
23.78 0.002622902 0.001438562 0.955272800 -0.274602300 0.958457700 -0.272621800 -0.000139254 0.005031954
23.865 -0.002104327 -0.003936930 0.955048600 -0.275260300 0.958197000 -0.273375100 -0.001005411 -0.004468735
23.95 -0.005246031 -0.007256117 0.954795700 -0.275901000 0.957884300 -0.273792300 -0.001340251 -0.010188380
24.035 -0.001230146 -0.000532873 0.954491400 -0.276628300 0.957817600 -0.274674600 0.001581788 -0.001495927
24.12 0.002212436 0.006291249 0.954567100 -0.276953200 0.957815000 -0.275018200 0.001129166 0.006425962
24.205 -0.000451721 -0.003871308 0.954137300 -0.277524800 0.957404600 -0.275716900 -0.002197170 -0.001925901
24.29 -0.003917882 -0.010815750 0.953995200 -0.278043200 0.957271900 -0.276276600 -0.003231449 -0.010647360
24.375 -0.003718870 -0.000341528 0.953758500 -0.278510500 0.957071800 -0.276750100 0.002407209 -0.004139951
24.46 0.002507560 0.007770329 0.953709800 -0.279247700 0.956883700 -0.277444500 0.002691187 0.007272638
24.545 -0.000446124 -0.002919120 0.953637800 -0.279658100 0.956876100 -0.277829800 -0.002619558 -0.000662832
24.63 -0.004244140 -0.011306440 0.953208600 -0.280368700 0.956418500 -0.278539000 -0.004804412 -0.010327710
24.715 -0.002150716 -0.003132866 0.953196800 -0.280766600 0.956536300 -0.278972600 0.001247450 -0.004936963
24.8 0.000901315 0.007218043 0.952872800 -0.281199500 0.956188300 -0.279351800 0.004579620 0.005443392
24.885 -0.001834684 0.001444958 0.952910800 -0.281838100 0.956224500 -0.280142000 -0.001027110 0.000811488
24.97 -0.002524815 -0.012021340 0.952662100 -0.282205800 0.955916200 -0.280440300 -0.006189701 -0.009132350
25.055 -0.001139827 -0.007301238 0.952535900 -0.282821500 0.955823500 -0.281102800 -0.001343982 -0.006235833
25.14 -0.000490778 0.008210223 0.952486700 -0.283011700 0.955811200 -0.281259900 0.005633561 0.004369169
25.225 -0.000632523 0.003656402 0.952248900 -0.283658600 0.955600900 -0.281975300 0.001338909 0.002156245
25.31 -0.003399367 -0.011980300 0.952159700 -0.284333900 0.955378100 -0.282587600 -0.006708512 -0.009397784
25.395 -0.002331242 -0.008528504 0.951797800 -0.284737300 0.955199200 -0.283111800 -0.003369586 -0.007389389
25.48 0.001867800 0.006169517 0.951770000 -0.285324900 0.955199100 -0.283609100 0.004641521 0.004798106
25.565 -0.001471185 0.005087167 0.951755500 -0.285747900 0.954964500 -0.284056200 0.003366825 0.002665825
25.65 -0.004530647 -0.007836996 0.951455600 -0.286489300 0.954780900 -0.284680700 -0.005008567 -0.008254875
25.735 -0.001877020 -0.011373400 0.951269300 -0.286976700 0.954708200 -0.284993100 -0.005705302 -0.008692524
25.82 0.000539150 0.001564525 0.951186300 -0.287668600 0.954583000 -0.285752600 0.002480310 0.002373289
25.905 -0.000428474 0.008690352 0.951512200 -0.287607600 0.954676800 -0.286263700 0.004656524 0.005713072
25.99 -0.002768909 -0.005441769 0.951098300 -0.288410600 0.954295000 -0.286944900 -0.002769134 -0.005937075
26.075 -0.003829928 -0.014316270 0.950753300 -0.289012600 0.954119300 -0.287588700 -0.007452256 -0.011571460
26.16 -0.001102308 -0.000960032 0.950777400 -0.289398400 0.954070200 -0.288029900 0.000360261 -0.001440165
26.245 0.001947955 0.008769765 0.950601600 -0.290166000 0.953779600 -0.288605100 0.005460354 0.007552492
26.33 -0.002450688 -0.001221654 0.950552300 -0.290874400 0.953976400 -0.288865300 -0.000484842 -0.001489868
26.415 -0.004712731 -0.012288700 0.950217800 -0.291628700 0.953569800 -0.289479400 -0.006281046 -0.012519210
26.5 -0.000637728 -0.006984287 0.950201400 -0.292113300 0.953577300 -0.290334100 -0.002815521 -0.005998412
